!Keysight Technologies N9926A: A.10.20
!Date: Sunday, 03 October 2021 00:58:56
!Timezone: 
!Model: N9926A
!Serial: MY57271140
!GPS Latitude: 
!GPS Longitude: 
!GPS TimeStamp: 0001-01-01 00:00:00Z
!GPS Seconds Since Last Read: 0
!CHECKSUM:1465239375
!Correction: S11(ON U)S21(ON U)S12(ON U)S22(ON U)
!S2P File: Measurements:S11,S21,S12,S22:
# Hz S DB R 50
500000	-0.131533005932371	-9.29207764936969	-15.9946594407703	81.0999499662219	-16.0199012210567	81.1051880350745	-0.138100444904071	-9.34305827898334	
15497500	-14.0206421744201	-77.4127474310214	-0.399340029748378	8.19984194573101	-0.407092937630477	8.27850677592643	-14.0892730811425	-77.1381121935448	
30495000	-19.0866120712933	-81.2291403070829	-0.288207059334869	0.235693868695586	-0.294555801864684	0.166358712146622	-18.9567707110969	-83.6392519874925	
45492500	-21.4502204017685	-84.5013817367646	-0.285767987833573	-4.214567684396	-0.292652949053334	-4.23850306049128	-21.4162162832715	-83.8759470385422	
60490000	-22.8213343422962	-85.4693222605172	-0.286522383592052	-7.87898083552551	-0.28827057497892	-7.70977366273319	-22.4160075009837	-89.9931764617991	
75487500	-23.000237449655	-86.6818604110538	-0.292893849032414	-11.0388468144018	-0.285758315776467	-10.9121269192628	-22.7385243408317	-90.3041750832917	
90485000	-23.1308328693936	-87.9190632744364	-0.293307972730605	-14.0461831142712	-0.302522917852641	-13.9964338888776	-23.0439429641945	-94.0445830241331	
105482500	-22.7845022648266	-89.7075438738146	-0.291762504461003	-16.9301232272079	-0.299539723437735	-16.9294436910353	-22.9831078490222	-97.8417053278769	
120480000	-22.8029360687384	-94.3523676250956	-0.297094130787621	-19.5983724738287	-0.308077676917816	-19.7187476537242	-22.8220724102495	-100.721134189806	
135477500	-22.5029322689076	-97.5887749267698	-0.305359425015373	-22.415246467532	-0.313062583315003	-22.3947708269229	-22.3755796341979	-102.944239154658	
150475000	-21.8714847233755	-100.757681418454	-0.31243891884988	-25.1386835260597	-0.327256335275402	-25.1563151413758	-22.2267238813207	-107.399090635798	
165472500	-21.6055343212352	-101.771682264545	-0.328294506452579	-27.8765316233934	-0.334114613521736	-27.8047033514402	-21.5126588108027	-110.52015607196	
180470000	-21.1126417078514	-104.262661237584	-0.355204307481617	-30.5828920296032	-0.340291972147221	-30.5068589002776	-21.1631940965423	-115.578073200576	
195467500	-20.6594024257481	-106.67998003119	-0.345715328892884	-33.1307763584361	-0.351669228736201	-33.2024597868813	-20.7641884772614	-118.741913776369	
210465000	-20.2002733768578	-109.744462070925	-0.366994767424383	-35.8348521940929	-0.365228323643578	-35.7217311189259	-20.5145107744894	-121.465127362591	
225462500	-19.858927335958	-111.233052957589	-0.383080216797022	-38.4924006796342	-0.363972882226997	-38.4141804296592	-19.959259120757	-125.384367920294	
240460000	-19.5649754331398	-113.625982935422	-0.384865381561244	-41.05993393011	-0.390754114856435	-41.0568009177713	-19.5556929587369	-128.849323990372	
255457500	-19.2744457665429	-117.675209529965	-0.378188988518896	-43.6141902029243	-0.390470431535772	-43.5323109856351	-19.3751625954773	-132.17732643092	
270455000	-18.709289791362	-119.282419702039	-0.389676560086959	-46.242681708938	-0.39340438073264	-46.2715418560489	-19.3252227961494	-134.516550192434	
285452500	-18.2742141812958	-121.410994298999	-0.399910523535941	-48.8249461262415	-0.407360295341682	-48.8829489160232	-18.7371190125645	-139.103840168635	
300450000	-18.094970359343	-122.766910670405	-0.418890142826195	-51.4114612555452	-0.438421136587761	-51.4361628299191	-18.3656078965203	-142.176578104239	
315447500	-17.8171052962252	-124.496690450375	-0.421392692512865	-54.0826062278692	-0.428173701914477	-54.0492464241758	-18.1558302742895	-145.697739078469	
330445000	-17.4321418738207	-126.962317588468	-0.438200911746308	-56.4565707334997	-0.44168109170646	-56.6406236664858	-17.8922875291973	-149.592571365758	
345442500	-17.2489361948581	-130.803045410222	-0.453427232684525	-59.1876326361972	-0.450406755231941	-59.2063175867844	-17.5905599948809	-152.373291521585	
360440000	-16.9127859446888	-132.011536868607	-0.470591166846213	-61.7995436424241	-0.462971212530958	-61.7718702799761	-17.2349376089591	-155.138430664234	
375437500	-16.7181326348759	-133.075896847355	-0.484094392208895	-64.3072790217373	-0.478090594239905	-64.3815794316407	-17.061895716047	-158.2092641303	
390435000	-16.4081826149297	-136.337783945881	-0.476252817954038	-66.9038976165699	-0.497483786258237	-66.9589541864536	-16.7572909652362	-161.477350457124	
405432500	-16.114029419712	-138.258515727715	-0.489744783453552	-69.5200652772187	-0.489909741071785	-69.3825791693291	-16.5834035912155	-164.934249173778	
420430000	-15.9091655639088	-140.150389971129	-0.509573201824902	-72.0152939237937	-0.512863534515445	-72.0554891480402	-16.3775638868322	-167.968587662033	
435427500	-15.7834285019635	-141.887696506319	-0.521048440887918	-74.6303043040962	-0.517541810277551	-74.6259636704928	-16.2894978353766	-171.002179995223	
450425000	-15.606705779979	-144.922912184363	-0.536885187193741	-77.1495276520372	-0.538895288739786	-77.0923241439184	-16.0462149029914	-174.66736430433	
465422500	-15.259253584414	-146.654532803924	-0.546703304434237	-79.7586488185613	-0.555777675286265	-79.803088855178	-15.8206107117108	-177.85901711553	
480420000	-15.1651920977773	-148.753186139757	-0.561513368106367	-82.3748518886946	-0.57164063032204	-82.2617933555023	-15.6913571067864	179.384996695924	
495417500	-14.9963376637525	-150.638759240438	-0.574923929678033	-84.7986274310879	-0.572357376127807	-84.8837759716518	-15.5158250686069	176.230272473119	
510415000	-14.8664880727646	-153.149976025574	-0.599105503323322	-87.4097499894991	-0.589126503142695	-87.4166344331116	-15.3371671997453	173.012788468383	
525412500	-14.7633759515184	-154.835279647505	-0.612887891650344	-89.8717813379783	-0.613989017882819	-89.8733767969761	-15.1905811042756	170.219602662453	
540410000	-14.5157610704505	-156.85081185219	-0.630364500693926	-92.3296671156904	-0.616335169030429	-92.3955218855657	-14.9623078561581	168.26140937552	
555407500	-14.26925993033	-158.819046425161	-0.646316965941777	-94.8674126347407	-0.649416284580691	-94.835318231228	-14.8194395875711	163.776279061474	
570405000	-14.1385734632988	-160.21598205491	-0.662060221839778	-97.4060984683691	-0.659502593017125	-97.4656263961552	-14.5899700607715	161.231693099207	
585402500	-13.9951944164274	-162.783617522912	-0.664848726544611	-99.8466319021737	-0.648754261094485	-99.7754732125886	-14.5826321807514	157.98175692105	
600400000	-13.8540649512561	-164.419851235133	-0.663502920315562	-102.396592081269	-0.665085038083916	-102.346423983444	-14.4123171765751	154.778221370307	
615397500	-13.8351633815828	-167.594979664974	-0.674324156732829	-104.826825669167	-0.674716370822225	-104.850247484326	-14.3543814585276	151.476649212983	
630395000	-13.6987937629005	-168.876599935638	-0.675818563843806	-107.384165460981	-0.709162624307123	-107.405933765814	-14.2376628660768	148.696099645723	
645392500	-13.6266631101647	-170.684069313333	-0.695982018017372	-109.8383031736	-0.690862743778225	-109.898791314709	-14.1704462388608	144.978828331741	
660390000	-13.524378691836	-173.204751667702	-0.688797444425421	-112.452368019949	-0.708359527232446	-112.442007974093	-14.1107191602519	142.233947271236	
675387500	-13.3999108322514	-175.138062019595	-0.708060964306628	-114.993674887038	-0.724917522701631	-114.898885183514	-14.0537106181853	139.284706130933	
690385000	-13.5180615416346	-177.508281676078	-0.714215345490037	-117.492771815622	-0.706203392320998	-117.49636633125	-14.0793521907888	135.302103946934	
705382500	-13.313094917587	-178.159736645078	-0.740723695753092	-120.058889835266	-0.742131430223399	-120.043979337606	-13.9208227135804	133.548246082955	
720380000	-13.4245467340063	179.157744328387	-0.755263130093449	-122.548910832333	-0.759828904881435	-122.48955935519	-13.9655320534511	129.923654043813	
735377500	-13.2040155148759	177.953883768671	-0.783693075729284	-125.072735138915	-0.749842045904972	-125.084228802274	-13.8753154851717	128.144345466082	
750375000	-13.1395410357068	175.486100695574	-0.780543001333349	-127.661450635519	-0.785154081986741	-127.589565855636	-13.9089453232027	124.930711632646	
765372500	-13.1469326502178	174.333603421027	-0.7772932955287	-130.112205285236	-0.806997240177286	-130.160521288764	-13.8972092199494	121.420240833237	
780370000	-13.0360663016353	171.994283665657	-0.811990869749021	-132.665117375063	-0.813012519132503	-132.633356707109	-13.8569584527816	118.571220221606	
795367500	-13.09605026139	171.095471735162	-0.813127438423562	-135.186380152532	-0.821144289381589	-135.108455337001	-13.7846244671188	115.788109511472	
810365000	-13.044117641608	169.175773035416	-0.842151954235327	-137.661984462384	-0.839609099254595	-137.698730430307	-13.8631049062565	113.241523461171	
825362500	-13.0394525745188	167.200501429701	-0.864037857462921	-140.105623690513	-0.847283825509705	-140.10003812513	-13.8866735745969	109.888165990114	
840360000	-12.9578267699018	166.382104328566	-0.872717269301508	-142.662513277753	-0.869416224607035	-142.666386379785	-13.9332517626657	107.986920397341	
855357500	-12.9871787311666	164.305907702618	-0.895601483332671	-145.087663991662	-0.888124058255825	-145.147396790054	-13.9161018248605	104.85876632438	
870355000	-12.9328527437094	162.310596445646	-0.903332555502393	-147.483235414493	-0.934221437540253	-147.505058931872	-13.7512408910649	102.272087276435	
885352500	-12.7885005521837	160.284418396089	-0.941828275848079	-149.987020018953	-0.941658635142445	-149.923406058952	-13.7315441057835	99.277473936825	
900350000	-12.7993102661	159.456881521851	-0.958537014225358	-152.367942971436	-0.943718070175671	-152.320905167579	-13.7718067086355	96.2018329517082	
915347500	-12.8823140534895	157.362886115444	-0.950437627290365	-154.721871907273	-0.969188895497838	-154.724572829855	-13.740545405394	93.390522001763	
930345000	-12.7614956281041	155.350631211845	-0.957020004518101	-157.217476022326	-0.960370661627282	-157.177069002501	-13.8057469517809	91.3656119763343	
945342500	-12.8169565948348	153.593984357458	-0.96911928367116	-159.499530361803	-0.969102684249193	-159.515267595956	-13.7530248242516	88.3719259314092	
960340000	-12.7422054316684	151.247704501557	-0.962411051380774	-161.846907919073	-0.948308742023825	-161.928294087591	-13.755950422753	85.4014092807854	
975337500	-12.7712165154366	149.354644272537	-0.964730876411198	-164.349944545924	-0.97098967029248	-164.22510007161	-13.7324489935026	81.8639501503767	
990335000	-12.8107133009953	147.661283640048	-0.971790637515782	-166.811079204754	-0.956276622906652	-166.750122760156	-13.7052959159449	78.6812229487444	
1005332500	-12.86569419235	145.759897450792	-0.957132232892312	-169.188856130818	-0.962194950873069	-169.209514637782	-13.8106193871109	75.5604390431263	
1020330000	-12.9028994695609	143.752992327596	-0.95886076036154	-171.499973929351	-0.959675536020612	-171.584858551363	-13.7965269705238	72.4749897778204	
1035327500	-12.8932759995238	142.393919230023	-0.94113913113642	-174.07655648634	-0.965349165119085	-174.012096658707	-13.9826687173235	68.9582163619073	
1050325000	-13.0210740498786	140.380515620337	-0.929156048692246	-176.565421160481	-0.934196248591557	-176.702892549465	-14.1052102623407	65.6244557344196	
1065322500	-13.0638966831746	137.921346334674	-0.943372568061577	-179.046950420238	-0.942882530576166	-179.086750350737	-14.095575542871	61.7153293843636	
1080320000	-13.2248655442209	136.198620540033	-0.937588795189126	178.479322425367	-0.945041845290038	178.517061783759	-14.1986686701029	59.6933685585556	
1095317500	-13.2793556638824	135.30828854662	-0.918770987759112	176.016261785283	-0.932916732673975	175.940034680829	-14.3339221678378	56.1519199931319	
1110315000	-13.4870462628353	133.678995562418	-0.930086327735895	173.530136826562	-0.941174365146199	173.544674101384	-14.5307135065715	52.7050013889899	
1125312500	-13.5328411959202	131.908364376698	-0.937799822755471	170.884607202805	-0.928385331408434	170.992407695243	-14.7461564182998	49.5444946613539	
1140310000	-13.6858800503493	130.873687181997	-0.925223066273675	168.46261217299	-0.921153494110753	168.506771673764	-14.8119020349685	47.4668155458212	
1155307500	-13.7989723905545	129.001251130761	-0.902580960763812	165.968558411986	-0.908943612681495	165.928592902491	-14.9398047536614	43.4082574299586	
1170305000	-14.0314898944896	126.426518086745	-0.923500348162396	163.443789770989	-0.915175347359598	163.426906754979	-15.1077764953386	40.8333971060581	
1185302500	-14.016627563365	125.583591053482	-0.924761687019397	160.940482189591	-0.915864613569042	160.824482373543	-15.3017379009453	37.2910328357772	
1200300000	-14.1363690561474	124.896382583574	-0.913144798670726	158.434450849353	-0.902246012940644	158.364232207176	-15.5834332332354	33.7945196437916	
1215297500	-14.3324074752313	123.311592994184	-0.905571123250788	155.83846531948	-0.922928340101414	156.004319733973	-15.9308331701636	30.7852918566736	
1230295000	-14.5501878494817	122.161395765772	-0.896549081318848	153.349034256372	-0.907902634927302	153.35998173356	-16.1557369150014	27.8376758928135	
1245292500	-14.6949778577085	120.666831616643	-0.918133741932136	150.844711511995	-0.913933192229774	150.812912266383	-16.1830371685907	23.5050845050355	
1260290000	-14.9573978019984	119.76713962474	-0.911855886032543	148.387369399654	-0.904028989467484	148.337048342001	-16.6059606738518	20.6314546065416	
1275287500	-15.2242436762555	118.49252188189	-0.909745297581339	145.795837590216	-0.908668361842215	145.694458816639	-16.8256125327502	17.2064777258508	
1290285000	-15.3403974767549	117.621717756063	-0.899173265030923	143.063587806381	-0.899560511495607	143.251814668123	-17.1672467296284	13.7542724566704	
1305282500	-15.4790074188921	116.645012478865	-0.904189234341805	140.708873139788	-0.908136004553354	140.619103660644	-17.447234692983	10.4770287078927	
1320280000	-15.7744984847336	116.044302178566	-0.899466401128798	138.1206370253	-0.900001605195698	138.191759932618	-17.9477723492409	6.34406664489961	
1335277500	-15.9813002189186	114.738288299731	-0.890351114660664	135.640320264849	-0.900337445144834	135.478788841735	-18.3165752576447	3.52285913171704	
1350275000	-16.3105834212777	114.694635789514	-0.906901495535386	132.925827879631	-0.915441568078543	132.972949602179	-18.6689035651445	-0.0045003656941225	
1365272500	-16.586076666023	113.947139475499	-0.907673962873275	130.60275589587	-0.918627041514106	130.439271690439	-19.0996689480032	-4.49810481354776	
1380270000	-16.7729271621947	114.262967334149	-0.89248012159215	127.897566068358	-0.9215293751963	127.875897049658	-19.4446294212362	-6.9245032784409	
1395267500	-17.1046460407965	114.665802570822	-0.909773922534257	125.380217402713	-0.920741426037949	125.332599207452	-20.1113101662164	-11.6742002776651	
1410265000	-17.1873736903668	114.324608154267	-0.905196576745482	122.755559484367	-0.920966233235104	122.838338353266	-20.6177535097741	-15.1927358106689	
1425262500	-17.4302386824778	114.456908383277	-0.922447882767075	120.23482751786	-0.918820183121009	120.324803452891	-21.2589637465572	-20.6201105616381	
1440260000	-17.9162072970522	114.678410453483	-0.920093492082339	117.791763342729	-0.917305202595335	117.695475668236	-21.9787337656472	-23.1682225895478	
1455257500	-18.3322473217726	113.463007821862	-0.919645214194509	115.149028296897	-0.918422295163185	115.113939036192	-22.7610293912679	-30.4774492727753	
1470255000	-18.4437360360177	117.366147465012	-0.901771961104933	112.528826333876	-0.915090772739628	112.701600301093	-23.3451171167911	-33.3728251667271	
1485252500	-18.5305582293659	117.46940130013	-0.916228949704809	110.114242488115	-0.931798963729694	110.030890513999	-24.4518576296718	-39.6471347523319	
1500250000	-18.8092379246762	119.660557497418	-0.915665687622141	107.382084147656	-0.929448782770186	107.416594963971	-25.3011160518024	-45.3433188218898	
1515247500	-19.0553414850195	120.456252751753	-0.936981316760094	104.821818497446	-0.91448546185113	104.888650270907	-26.1427863895179	-55.1235090707637	
1530245000	-19.2380519075686	122.441983607538	-0.929549715072368	102.276608169384	-0.922789222935293	102.221746609984	-28.0463394658942	-62.3742385203998	
1545242500	-19.3789847364936	125.356803560128	-0.942720978454494	99.6035719303709	-0.95849909578319	99.7360818267487	-28.6217101784862	-69.6277507059825	
1560240000	-19.3399148905862	126.136823819107	-0.958611018859272	97.1006130987653	-0.94778093601717	97.1214991394818	-30.2059337539248	-85.3972231205931	
1575237500	-19.1632731504167	129.017172704096	-0.92890259699559	94.5062757628961	-0.925613264244072	94.4998480586763	-31.2087490819707	-107.886666706185	
1590235000	-19.1969834348459	132.008746673532	-0.954859572912174	91.9158605616508	-0.931491931556929	92.0200575295486	-32.2528023006387	-119.795590391062	
1605232500	-18.9731289685576	133.76757315539	-0.987333618677068	89.3898720704703	-0.955666832022004	89.2902789165089	-32.4249349331813	-142.401751443968	
1620230000	-18.9468352959836	135.399253373328	-0.968120736225178	86.7560227098474	-0.987373544180822	86.8248107316565	-30.1440821199625	-156.987676459318	
1635227500	-18.8622739442373	136.869942609396	-0.965920738016238	84.1348255890238	-0.991901828618902	84.172845830665	-28.9365322198971	-174.48783772198	
1650225000	-18.7176758306028	138.254944005691	-0.987116464555982	81.6131791642883	-0.993189672118949	81.6002468884023	-27.4432278667614	175.853153685343	
1665222500	-18.2991135183717	140.641305017438	-0.994118643524387	79.0293110606468	-1.0022196565168	78.9843710385605	-26.5045352619288	164.322475378405	
1680220000	-18.0602377606699	140.938875400967	-0.997963919046082	76.2253617302763	-1.00765277956061	76.3283456665785	-25.1541367065088	157.883129106561	
1695217500	-17.6498105592629	143.585241268186	-1.02301562745696	73.8371593840478	-1.03380984017139	73.7529844236045	-24.014924249466	149.041042535524	
1710215000	-17.5141422695842	144.000718235646	-1.02365828772662	71.1224536747703	-1.0320376332627	71.1174410875183	-22.9730664632919	144.507916752729	
1725212500	-17.1933829407254	145.496895075609	-1.06253375806066	68.6341623889539	-1.05311408872855	68.5935382839813	-21.9128249425578	139.592512105396	
1740210000	-16.6954037127534	145.752979380399	-1.03950356198056	65.9403532225177	-1.06295537638103	66.0306353877209	-21.5220550766084	132.105041287846	
1755207500	-16.4533967196239	145.326288539762	-1.05585370901243	63.34121944066	-1.06613598234443	63.3973516601558	-20.382985222058	129.324480048261	
1770205000	-16.0563500681771	145.078662910535	-1.08393764026501	60.6692432573718	-1.06985625551954	60.8454275696727	-19.6958603387609	124.583942718027	
1785202500	-15.7353394847924	144.793014348701	-1.08881930442517	58.094498547188	-1.0984427190584	58.1195050589536	-18.9074412739735	120.886459927478	
1800200000	-15.2365605779512	145.859639794591	-1.10945940850586	55.6066476981138	-1.10571251743633	55.6334317473257	-18.3399810177031	115.878519982698	
1815197500	-14.8952503869494	145.167699510503	-1.13084671731591	52.8389079876127	-1.12305957195677	52.9441580307652	-17.841924391245	111.92060237264	
1830195000	-14.6342368547138	145.298036322383	-1.12757742532763	50.4401165484276	-1.14365593881942	50.3585373112804	-17.3861292200345	107.825095019867	
1845192500	-14.1965764871707	144.340746351408	-1.17554808006576	47.7869924302671	-1.15036881268079	47.8695813854588	-16.7464747091366	105.456122583655	
1860190000	-14.0774344151421	144.149855219892	-1.18995406480433	45.2176628481959	-1.17766949081027	45.2608272173341	-16.1424000853399	101.436924116186	
1875187500	-13.6742009732614	142.562742841759	-1.18675564321665	42.6244780722147	-1.19075944051873	42.7609658849121	-15.7239008530451	97.8430732929024	
